v6	I(R1)	I(R2)	I(R3)	I(R4)	I(R5)	I(R6)	I(R7)	I(R8)	I(R9)	I(R10)
-2.000000000000000e+002	2.833333e+001	3.888889e+001	-1.861111e+001	2.361111e+001	-4.722222e+000	2.777778e-001	-2.166667e+001	-1.638889e+001	-2.138889e+001	2.777778e+001
-1.999000000000000e+002	2.832083e+001	3.887222e+001	-1.859861e+001	2.359861e+001	-4.722222e+000	2.777778e-001	-2.165417e+001	-1.637639e+001	-2.137639e+001	2.776111e+001
-1.998000000000000e+002	2.830833e+001	3.885556e+001	-1.858611e+001	2.358611e+001	-4.722222e+000	2.777778e-001	-2.164167e+001	-1.636389e+001	-2.136389e+001	2.774444e+001
-1.997000000000000e+002	2.829583e+001	3.883889e+001	-1.857361e+001	2.357361e+001	-4.722222e+000	2.777778e-001	-2.162917e+001	-1.635139e+001	-2.135139e+001	2.772778e+001
-1.996000000000000e+002	2.828333e+001	3.882222e+001	-1.856111e+001	2.356111e+001	-4.722222e+000	2.777778e-001	-2.161667e+001	-1.633889e+001	-2.133889e+001	2.771111e+001
-1.995000000000000e+002	2.827083e+001	3.880556e+001	-1.854861e+001	2.354861e+001	-4.722222e+000	2.777778e-001	-2.160417e+001	-1.632639e+001	-2.132639e+001	2.769444e+001
-1.994000000000000e+002	2.825833e+001	3.878889e+001	-1.853611e+001	2.353611e+001	-4.722222e+000	2.777778e-001	-2.159167e+001	-1.631389e+001	-2.131389e+001	2.767778e+001
-1.993000000000000e+002	2.824583e+001	3.877222e+001	-1.852361e+001	2.352361e+001	-4.722222e+000	2.777778e-001	-2.157917e+001	-1.630139e+001	-2.130139e+001	2.766111e+001
-1.992000000000001e+002	2.823333e+001	3.875555e+001	-1.851111e+001	2.351111e+001	-4.722222e+000	2.777778e-001	-2.156667e+001	-1.628889e+001	-2.128889e+001	2.764444e+001
-1.991000000000001e+002	2.822083e+001	3.873889e+001	-1.849861e+001	2.349861e+001	-4.722222e+000	2.777778e-001	-2.155417e+001	-1.627639e+001	-2.127639e+001	2.762778e+001
-1.990000000000001e+002	2.820833e+001	3.872222e+001	-1.848611e+001	2.348611e+001	-4.722222e+000	2.777778e-001	-2.154167e+001	-1.626389e+001	-2.126389e+001	2.761111e+001
-1.989000000000001e+002	2.819583e+001	3.870555e+001	-1.847361e+001	2.347361e+001	-4.722222e+000	2.777778e-001	-2.152917e+001	-1.625139e+001	-2.125139e+001	2.759444e+001
-1.988000000000001e+002	2.818333e+001	3.868889e+001	-1.846111e+001	2.346111e+001	-4.722222e+000	2.777778e-001	-2.151667e+001	-1.623889e+001	-2.123889e+001	2.757778e+001
-1.987000000000001e+002	2.817083e+001	3.867222e+001	-1.844861e+001	2.344861e+001	-4.722222e+000	2.777778e-001	-2.150417e+001	-1.622639e+001	-2.122639e+001	2.756111e+001
-1.986000000000001e+002	2.815833e+001	3.865556e+001	-1.843611e+001	2.343611e+001	-4.722222e+000	2.777778e-001	-2.149167e+001	-1.621389e+001	-2.121389e+001	2.754445e+001
-1.985000000000001e+002	2.814583e+001	3.863889e+001	-1.842361e+001	2.342361e+001	-4.722222e+000	2.777778e-001	-2.147917e+001	-1.620139e+001	-2.120139e+001	2.752778e+001
-1.984000000000001e+002	2.813333e+001	3.862222e+001	-1.841111e+001	2.341111e+001	-4.722222e+000	2.777778e-001	-2.146667e+001	-1.618889e+001	-2.118889e+001	2.751111e+001
-1.983000000000001e+002	2.812083e+001	3.860556e+001	-1.839861e+001	2.339861e+001	-4.722222e+000	2.777778e-001	-2.145417e+001	-1.617639e+001	-2.117639e+001	2.749444e+001
-1.982000000000001e+002	2.810833e+001	3.858889e+001	-1.838611e+001	2.338611e+001	-4.722222e+000	2.777778e-001	-2.144167e+001	-1.616389e+001	-2.116389e+001	2.747778e+001
-1.981000000000001e+002	2.809583e+001	3.857222e+001	-1.837361e+001	2.337361e+001	-4.722222e+000	2.777778e-001	-2.142917e+001	-1.615139e+001	-2.115139e+001	2.746111e+001
-1.980000000000001e+002	2.808333e+001	3.855556e+001	-1.836111e+001	2.336111e+001	-4.722222e+000	2.777778e-001	-2.141667e+001	-1.613889e+001	-2.113889e+001	2.744444e+001
-1.979000000000001e+002	2.807083e+001	3.853889e+001	-1.834861e+001	2.334861e+001	-4.722222e+000	2.777778e-001	-2.140417e+001	-1.612639e+001	-2.112639e+001	2.742778e+001
-1.978000000000001e+002	2.805833e+001	3.852222e+001	-1.833611e+001	2.333611e+001	-4.722222e+000	2.777778e-001	-2.139167e+001	-1.611389e+001	-2.111389e+001	2.741111e+001
-1.977000000000001e+002	2.804583e+001	3.850555e+001	-1.832361e+001	2.332361e+001	-4.722222e+000	2.777778e-001	-2.137917e+001	-1.610139e+001	-2.110139e+001	2.739444e+001
-1.976000000000001e+002	2.803333e+001	3.848889e+001	-1.831111e+001	2.331111e+001	-4.722222e+000	2.777778e-001	-2.136667e+001	-1.608889e+001	-2.108889e+001	2.737778e+001
-1.975000000000001e+002	2.802083e+001	3.847222e+001	-1.829861e+001	2.329861e+001	-4.722222e+000	2.777778e-001	-2.135417e+001	-1.607639e+001	-2.107639e+001	2.736111e+001
-1.974000000000002e+002	2.800833e+001	3.845555e+001	-1.828611e+001	2.328611e+001	-4.722222e+000	2.777778e-001	-2.134167e+001	-1.606389e+001	-2.106389e+001	2.734444e+001
-1.973000000000002e+002	2.799583e+001	3.843889e+001	-1.827361e+001	2.327361e+001	-4.722222e+000	2.777778e-001	-2.132917e+001	-1.605139e+001	-2.105139e+001	2.732778e+001
-1.972000000000002e+002	2.798333e+001	3.842222e+001	-1.826111e+001	2.326111e+001	-4.722222e+000	2.777778e-001	-2.131667e+001	-1.603889e+001	-2.103889e+001	2.731111e+001
-1.971000000000002e+002	2.797083e+001	3.840556e+001	-1.824861e+001	2.324861e+001	-4.722222e+000	2.777778e-001	-2.130417e+001	-1.602639e+001	-2.102639e+001	2.729445e+001
-1.970000000000002e+002	2.795833e+001	3.838889e+001	-1.823611e+001	2.323611e+001	-4.722222e+000	2.777778e-001	-2.129167e+001	-1.601389e+001	-2.101389e+001	2.727778e+001
-1.969000000000002e+002	2.794583e+001	3.837222e+001	-1.822361e+001	2.322361e+001	-4.722222e+000	2.777778e-001	-2.127917e+001	-1.600139e+001	-2.100139e+001	2.726111e+001
-1.968000000000002e+002	2.793333e+001	3.835556e+001	-1.821111e+001	2.321111e+001	-4.722222e+000	2.777778e-001	-2.126667e+001	-1.598889e+001	-2.098889e+001	2.724444e+001
-1.967000000000002e+002	2.792083e+001	3.833889e+001	-1.819861e+001	2.319861e+001	-4.722222e+000	2.777778e-001	-2.125417e+001	-1.597639e+001	-2.097639e+001	2.722778e+001
-1.966000000000002e+002	2.790833e+001	3.832222e+001	-1.818611e+001	2.318611e+001	-4.722222e+000	2.777778e-001	-2.124167e+001	-1.596389e+001	-2.096389e+001	2.721111e+001
-1.965000000000002e+002	2.789583e+001	3.830556e+001	-1.817361e+001	2.317361e+001	-4.722222e+000	2.777778e-001	-2.122917e+001	-1.595139e+001	-2.095139e+001	2.719444e+001
-1.964000000000002e+002	2.788333e+001	3.828889e+001	-1.816111e+001	2.316111e+001	-4.722222e+000	2.777778e-001	-2.121667e+001	-1.593889e+001	-2.093889e+001	2.717778e+001
-1.963000000000002e+002	2.787083e+001	3.827222e+001	-1.814861e+001	2.314861e+001	-4.722222e+000	2.777778e-001	-2.120417e+001	-1.592639e+001	-2.092639e+001	2.716111e+001
-1.962000000000002e+002	2.785833e+001	3.825555e+001	-1.813611e+001	2.313611e+001	-4.722222e+000	2.777778e-001	-2.119167e+001	-1.591389e+001	-2.091389e+001	2.714444e+001
-1.961000000000002e+002	2.784583e+001	3.823889e+001	-1.812361e+001	2.312361e+001	-4.722222e+000	2.777778e-001	-2.117917e+001	-1.590139e+001	-2.090139e+001	2.712778e+001
-1.960000000000002e+002	2.783333e+001	3.822222e+001	-1.811111e+001	2.311111e+001	-4.722222e+000	2.777778e-001	-2.116667e+001	-1.588889e+001	-2.088889e+001	2.711111e+001
-1.959000000000002e+002	2.782083e+001	3.820555e+001	-1.809861e+001	2.309861e+001	-4.722222e+000	2.777778e-001	-2.115417e+001	-1.587639e+001	-2.087639e+001	2.709444e+001
-1.958000000000002e+002	2.780833e+001	3.818889e+001	-1.808611e+001	2.308611e+001	-4.722222e+000	2.777778e-001	-2.114167e+001	-1.586389e+001	-2.086389e+001	2.707778e+001
-1.957000000000002e+002	2.779583e+001	3.817222e+001	-1.807361e+001	2.307361e+001	-4.722222e+000	2.777778e-001	-2.112917e+001	-1.585139e+001	-2.085139e+001	2.706111e+001
-1.956000000000003e+002	2.778333e+001	3.815556e+001	-1.806111e+001	2.306111e+001	-4.722222e+000	2.777778e-001	-2.111667e+001	-1.583889e+001	-2.083889e+001	2.704445e+001
-1.955000000000003e+002	2.777083e+001	3.813889e+001	-1.804861e+001	2.304861e+001	-4.722222e+000	2.777778e-001	-2.110417e+001	-1.582639e+001	-2.082639e+001	2.702778e+001
-1.954000000000003e+002	2.775833e+001	3.812222e+001	-1.803611e+001	2.303611e+001	-4.722222e+000	2.777778e-001	-2.109167e+001	-1.581389e+001	-2.081389e+001	2.701111e+001
-1.953000000000003e+002	2.774583e+001	3.810556e+001	-1.802361e+001	2.302361e+001	-4.722222e+000	2.777778e-001	-2.107917e+001	-1.580139e+001	-2.080139e+001	2.699444e+001
-1.952000000000003e+002	2.773333e+001	3.808889e+001	-1.801111e+001	2.301111e+001	-4.722222e+000	2.777778e-001	-2.106667e+001	-1.578889e+001	-2.078889e+001	2.697778e+001
-1.951000000000003e+002	2.772083e+001	3.807222e+001	-1.799861e+001	2.299861e+001	-4.722222e+000	2.777778e-001	-2.105417e+001	-1.577639e+001	-2.077639e+001	2.696111e+001
-1.950000000000003e+002	2.770833e+001	3.805556e+001	-1.798611e+001	2.298611e+001	-4.722222e+000	2.777778e-001	-2.104167e+001	-1.576389e+001	-2.076389e+001	2.694444e+001
-1.949000000000003e+002	2.769583e+001	3.803889e+001	-1.797361e+001	2.297361e+001	-4.722222e+000	2.777778e-001	-2.102917e+001	-1.575139e+001	-2.075139e+001	2.692778e+001
-1.948000000000003e+002	2.768333e+001	3.802222e+001	-1.796111e+001	2.296111e+001	-4.722222e+000	2.777778e-001	-2.101667e+001	-1.573889e+001	-2.073889e+001	2.691111e+001
-1.947000000000003e+002	2.767083e+001	3.800555e+001	-1.794861e+001	2.294861e+001	-4.722222e+000	2.777778e-001	-2.100417e+001	-1.572639e+001	-2.072639e+001	2.689444e+001
-1.946000000000003e+002	2.765833e+001	3.798889e+001	-1.793611e+001	2.293611e+001	-4.722222e+000	2.777778e-001	-2.099167e+001	-1.571389e+001	-2.071389e+001	2.687778e+001
-1.945000000000003e+002	2.764583e+001	3.797222e+001	-1.792361e+001	2.292361e+001	-4.722222e+000	2.777778e-001	-2.097917e+001	-1.570139e+001	-2.070139e+001	2.686111e+001
-1.944000000000003e+002	2.763333e+001	3.795555e+001	-1.791111e+001	2.291111e+001	-4.722222e+000	2.777778e-001	-2.096667e+001	-1.568889e+001	-2.068889e+001	2.684444e+001
-1.943000000000003e+002	2.762083e+001	3.793889e+001	-1.789861e+001	2.289861e+001	-4.722222e+000	2.777778e-001	-2.095417e+001	-1.567639e+001	-2.067639e+001	2.682778e+001
-1.942000000000003e+002	2.760833e+001	3.792222e+001	-1.788611e+001	2.288611e+001	-4.722222e+000	2.777778e-001	-2.094167e+001	-1.566389e+001	-2.066389e+001	2.681111e+001
-1.941000000000003e+002	2.759583e+001	3.790556e+001	-1.787361e+001	2.287361e+001	-4.722222e+000	2.777778e-001	-2.092917e+001	-1.565139e+001	-2.065139e+001	2.679445e+001
-1.940000000000003e+002	2.758333e+001	3.788889e+001	-1.786111e+001	2.286111e+001	-4.722222e+000	2.777778e-001	-2.091667e+001	-1.563889e+001	-2.063889e+001	2.677778e+001
-1.939000000000004e+002	2.757083e+001	3.787222e+001	-1.784861e+001	2.284861e+001	-4.722222e+000	2.777778e-001	-2.090417e+001	-1.562639e+001	-2.062639e+001	2.676111e+001
-1.938000000000004e+002	2.755833e+001	3.785556e+001	-1.783611e+001	2.283611e+001	-4.722222e+000	2.777778e-001	-2.089167e+001	-1.561389e+001	-2.061389e+001	2.674444e+001
-1.937000000000004e+002	2.754583e+001	3.783889e+001	-1.782361e+001	2.282361e+001	-4.722222e+000	2.777778e-001	-2.087917e+001	-1.560139e+001	-2.060139e+001	2.672778e+001
-1.936000000000004e+002	2.753333e+001	3.782222e+001	-1.781111e+001	2.281111e+001	-4.722222e+000	2.777778e-001	-2.086667e+001	-1.558889e+001	-2.058889e+001	2.671111e+001
-1.935000000000004e+002	2.752083e+001	3.780556e+001	-1.779861e+001	2.279861e+001	-4.722222e+000	2.777778e-001	-2.085417e+001	-1.557639e+001	-2.057639e+001	2.669444e+001
-1.934000000000004e+002	2.750833e+001	3.778889e+001	-1.778611e+001	2.278611e+001	-4.722222e+000	2.777778e-001	-2.084167e+001	-1.556389e+001	-2.056389e+001	2.667778e+001
-1.933000000000004e+002	2.749583e+001	3.777222e+001	-1.777361e+001	2.277361e+001	-4.722222e+000	2.777778e-001	-2.082917e+001	-1.555139e+001	-2.055139e+001	2.666111e+001
-1.932000000000004e+002	2.748333e+001	3.775555e+001	-1.776111e+001	2.276111e+001	-4.722222e+000	2.777778e-001	-2.081667e+001	-1.553889e+001	-2.053889e+001	2.664444e+001
-1.931000000000004e+002	2.747083e+001	3.773889e+001	-1.774861e+001	2.274861e+001	-4.722222e+000	2.777778e-001	-2.080417e+001	-1.552639e+001	-2.052639e+001	2.662778e+001
-1.930000000000004e+002	2.745833e+001	3.772222e+001	-1.773611e+001	2.273611e+001	-4.722222e+000	2.777778e-001	-2.079167e+001	-1.551389e+001	-2.051389e+001	2.661111e+001
-1.929000000000004e+002	2.744583e+001	3.770555e+001	-1.772361e+001	2.272361e+001	-4.722222e+000	2.777778e-001	-2.077917e+001	-1.550139e+001	-2.050139e+001	2.659444e+001
-1.928000000000004e+002	2.743333e+001	3.768889e+001	-1.771111e+001	2.271111e+001	-4.722222e+000	2.777778e-001	-2.076667e+001	-1.548889e+001	-2.048889e+001	2.657778e+001
-1.927000000000004e+002	2.742083e+001	3.767222e+001	-1.769861e+001	2.269861e+001	-4.722222e+000	2.777778e-001	-2.075417e+001	-1.547639e+001	-2.047639e+001	2.656111e+001
-1.926000000000004e+002	2.740833e+001	3.765556e+001	-1.768611e+001	2.268611e+001	-4.722222e+000	2.777778e-001	-2.074167e+001	-1.546389e+001	-2.046389e+001	2.654445e+001
-1.925000000000004e+002	2.739583e+001	3.763889e+001	-1.767361e+001	2.267361e+001	-4.722222e+000	2.777778e-001	-2.072917e+001	-1.545139e+001	-2.045139e+001	2.652778e+001
-1.924000000000004e+002	2.738333e+001	3.762222e+001	-1.766111e+001	2.266111e+001	-4.722222e+000	2.777778e-001	-2.071667e+001	-1.543889e+001	-2.043889e+001	2.651111e+001
-1.923000000000004e+002	2.737083e+001	3.760556e+001	-1.764861e+001	2.264861e+001	-4.722222e+000	2.777778e-001	-2.070417e+001	-1.542639e+001	-2.042639e+001	2.649444e+001
-1.922000000000004e+002	2.735833e+001	3.758889e+001	-1.763611e+001	2.263611e+001	-4.722222e+000	2.777778e-001	-2.069167e+001	-1.541389e+001	-2.041389e+001	2.647778e+001
-1.921000000000005e+002	2.734583e+001	3.757222e+001	-1.762361e+001	2.262361e+001	-4.722222e+000	2.777778e-001	-2.067917e+001	-1.540139e+001	-2.040139e+001	2.646111e+001
-1.920000000000005e+002	2.733333e+001	3.755556e+001	-1.761111e+001	2.261111e+001	-4.722222e+000	2.777778e-001	-2.066667e+001	-1.538889e+001	-2.038889e+001	2.644444e+001
-1.919000000000005e+002	2.732083e+001	3.753889e+001	-1.759861e+001	2.259861e+001	-4.722222e+000	2.777778e-001	-2.065417e+001	-1.537639e+001	-2.037639e+001	2.642778e+001
-1.918000000000005e+002	2.730833e+001	3.752222e+001	-1.758611e+001	2.258611e+001	-4.722222e+000	2.777778e-001	-2.064167e+001	-1.536389e+001	-2.036389e+001	2.641111e+001
-1.917000000000005e+002	2.729583e+001	3.750555e+001	-1.757361e+001	2.257361e+001	-4.722222e+000	2.777778e-001	-2.062917e+001	-1.535139e+001	-2.035139e+001	2.639444e+001
-1.916000000000005e+002	2.728333e+001	3.748889e+001	-1.756111e+001	2.256111e+001	-4.722222e+000	2.777778e-001	-2.061667e+001	-1.533889e+001	-2.033889e+001	2.637778e+001
-1.915000000000005e+002	2.727083e+001	3.747222e+001	-1.754861e+001	2.254861e+001	-4.722222e+000	2.777778e-001	-2.060417e+001	-1.532639e+001	-2.032639e+001	2.636111e+001
-1.914000000000005e+002	2.725833e+001	3.745555e+001	-1.753611e+001	2.253611e+001	-4.722222e+000	2.777778e-001	-2.059167e+001	-1.531389e+001	-2.031389e+001	2.634444e+001
-1.913000000000005e+002	2.724583e+001	3.743889e+001	-1.752361e+001	2.252361e+001	-4.722222e+000	2.777778e-001	-2.057917e+001	-1.530139e+001	-2.030139e+001	2.632778e+001
-1.912000000000005e+002	2.723333e+001	3.742222e+001	-1.751111e+001	2.251111e+001	-4.722222e+000	2.777778e-001	-2.056667e+001	-1.528889e+001	-2.028889e+001	2.631111e+001
-1.911000000000005e+002	2.722083e+001	3.740556e+001	-1.749861e+001	2.249861e+001	-4.722222e+000	2.777778e-001	-2.055417e+001	-1.527639e+001	-2.027639e+001	2.629445e+001
-1.910000000000005e+002	2.720833e+001	3.738889e+001	-1.748611e+001	2.248611e+001	-4.722222e+000	2.777778e-001	-2.054167e+001	-1.526389e+001	-2.026389e+001	2.627778e+001
-1.909000000000005e+002	2.719583e+001	3.737222e+001	-1.747361e+001	2.247361e+001	-4.722222e+000	2.777778e-001	-2.052917e+001	-1.525139e+001	-2.025139e+001	2.626111e+001
-1.908000000000005e+002	2.718333e+001	3.735556e+001	-1.746111e+001	2.246111e+001	-4.722222e+000	2.777778e-001	-2.051667e+001	-1.523889e+001	-2.023889e+001	2.624444e+001
-1.907000000000005e+002	2.717083e+001	3.733889e+001	-1.744861e+001	2.244861e+001	-4.722222e+000	2.777778e-001	-2.050417e+001	-1.522639e+001	-2.022639e+001	2.622778e+001
-1.906000000000005e+002	2.715833e+001	3.732222e+001	-1.743611e+001	2.243611e+001	-4.722222e+000	2.777778e-001	-2.049167e+001	-1.521389e+001	-2.021389e+001	2.621111e+001
-1.905000000000005e+002	2.714583e+001	3.730556e+001	-1.742361e+001	2.242361e+001	-4.722222e+000	2.777778e-001	-2.047917e+001	-1.520139e+001	-2.020139e+001	2.619444e+001
-1.904000000000006e+002	2.713333e+001	3.728889e+001	-1.741111e+001	2.241111e+001	-4.722222e+000	2.777778e-001	-2.046667e+001	-1.518889e+001	-2.018889e+001	2.617778e+001
-1.903000000000006e+002	2.712083e+001	3.727222e+001	-1.739861e+001	2.239861e+001	-4.722222e+000	2.777778e-001	-2.045417e+001	-1.517639e+001	-2.017639e+001	2.616111e+001
-1.902000000000006e+002	2.710833e+001	3.725555e+001	-1.738611e+001	2.238611e+001	-4.722222e+000	2.777778e-001	-2.044167e+001	-1.516389e+001	-2.016389e+001	2.614444e+001
-1.901000000000006e+002	2.709583e+001	3.723889e+001	-1.737361e+001	2.237361e+001	-4.722222e+000	2.777778e-001	-2.042917e+001	-1.515139e+001	-2.015139e+001	2.612778e+001
-1.900000000000006e+002	2.708333e+001	3.722222e+001	-1.736111e+001	2.236111e+001	-4.722222e+000	2.777778e-001	-2.041667e+001	-1.513889e+001	-2.013889e+001	2.611111e+001
-1.899000000000006e+002	2.707083e+001	3.720555e+001	-1.734861e+001	2.234861e+001	-4.722222e+000	2.777778e-001	-2.040417e+001	-1.512639e+001	-2.012639e+001	2.609444e+001
-1.898000000000006e+002	2.705833e+001	3.718889e+001	-1.733611e+001	2.233611e+001	-4.722222e+000	2.777778e-001	-2.039167e+001	-1.511389e+001	-2.011389e+001	2.607778e+001
-1.897000000000006e+002	2.704583e+001	3.717222e+001	-1.732361e+001	2.232361e+001	-4.722222e+000	2.777778e-001	-2.037917e+001	-1.510139e+001	-2.010139e+001	2.606111e+001
-1.896000000000006e+002	2.703333e+001	3.715556e+001	-1.731111e+001	2.231111e+001	-4.722222e+000	2.777778e-001	-2.036667e+001	-1.508889e+001	-2.008889e+001	2.604445e+001
-1.895000000000006e+002	2.702083e+001	3.713889e+001	-1.729861e+001	2.229861e+001	-4.722222e+000	2.777778e-001	-2.035417e+001	-1.507639e+001	-2.007639e+001	2.602778e+001
-1.894000000000006e+002	2.700833e+001	3.712222e+001	-1.728611e+001	2.228611e+001	-4.722222e+000	2.777778e-001	-2.034167e+001	-1.506389e+001	-2.006389e+001	2.601111e+001
-1.893000000000006e+002	2.699583e+001	3.710556e+001	-1.727361e+001	2.227361e+001	-4.722222e+000	2.777778e-001	-2.032917e+001	-1.505139e+001	-2.005139e+001	2.599444e+001
-1.892000000000006e+002	2.698333e+001	3.708889e+001	-1.726111e+001	2.226111e+001	-4.722222e+000	2.777778e-001	-2.031667e+001	-1.503889e+001	-2.003889e+001	2.597778e+001
-1.891000000000006e+002	2.697083e+001	3.707222e+001	-1.724861e+001	2.224861e+001	-4.722222e+000	2.777778e-001	-2.030417e+001	-1.502639e+001	-2.002639e+001	2.596111e+001
-1.890000000000006e+002	2.695833e+001	3.705556e+001	-1.723611e+001	2.223611e+001	-4.722222e+000	2.777778e-001	-2.029167e+001	-1.501389e+001	-2.001389e+001	2.594444e+001
-1.889000000000006e+002	2.694583e+001	3.703889e+001	-1.722361e+001	2.222361e+001	-4.722222e+000	2.777778e-001	-2.027917e+001	-1.500139e+001	-2.000139e+001	2.592778e+001
-1.888000000000006e+002	2.693333e+001	3.702222e+001	-1.721111e+001	2.221111e+001	-4.722222e+000	2.777778e-001	-2.026667e+001	-1.498889e+001	-1.998889e+001	2.591111e+001
-1.887000000000006e+002	2.692083e+001	3.700555e+001	-1.719861e+001	2.219861e+001	-4.722222e+000	2.777778e-001	-2.025417e+001	-1.497639e+001	-1.997639e+001	2.589444e+001
-1.886000000000007e+002	2.690833e+001	3.698889e+001	-1.718611e+001	2.218611e+001	-4.722222e+000	2.777778e-001	-2.024167e+001	-1.496389e+001	-1.996389e+001	2.587778e+001
-1.885000000000007e+002	2.689583e+001	3.697222e+001	-1.717361e+001	2.217361e+001	-4.722222e+000	2.777778e-001	-2.022917e+001	-1.495139e+001	-1.995139e+001	2.586111e+001
-1.884000000000007e+002	2.688333e+001	3.695555e+001	-1.716111e+001	2.216111e+001	-4.722222e+000	2.777778e-001	-2.021667e+001	-1.493889e+001	-1.993889e+001	2.584444e+001
